write to 0x34 ack data: 0x73 
write to 0x34 ack data: 0x65 
write to 0x34 ack data: 0x74 
write to 0x34 ack data: 0x5F 
write to 0x34 ack data: 0x6D 
write to 0x34 ack data: 0x61 
write to 0x2C ack data: 0x43 
write to 0x34 ack data: 0x78 
write to 0x2C ack data: 0x48 
write to 0x34 ack data: 0x5F 
write to 0x34 ack data: 0x6C 
write to 0x2C ack data: 0x54 
write to 0x34 ack data: 0x69 
write to 0x34 ack data: 0x6D 
write to 0x2C ack data: 0x42 
write to 0x2C ack data: 0x7B 
write to 0x34 ack data: 0x69 
write to 0x34 ack data: 0x74 
write to 0x2C ack data: 0x6E 
write to 0x34 ack data: 0x5F 
write to 0x34 ack data: 0x74 
write to 0x2C ack data: 0x75 
write to 0x34 ack data: 0x6F 
write to 0x2C ack data: 0x31 
write to 0x34 ack data: 0x3A 
write to 0x2C ack data: 0x31 
write to 0x34 ack data: 0x31 
write to 0x34 ack data: 0x30 
write to 0x2C ack data: 0x5F 
write to 0x04 nak
write to 0x34 ack data: 0x73 
write to 0x34 ack data: 0x65 
write to 0x2C ack data: 0x37 
write to 0x2C ack data: 0x33 
write to 0x34 ack data: 0x74 
write to 0x34 ack data: 0x5F 
write to 0x2C ack data: 0x32 
write to 0x34 ack data: 0x6D 
write to 0x34 ack data: 0x69 
write to 0x2C ack data: 0x6D 
write to 0x34 ack data: 0x6E 
write to 0x2C ack data: 0x31 
write to 0x34 ack data: 0x5F 
write to 0x2C ack data: 0x6E 
write to 0x34 ack data: 0x6C 
write to 0x34 ack data: 0x69 
write to 0x2C ack data: 0x34 
write to 0x34 ack data: 0x6D 
write to 0x34 ack data: 0x69 
write to 0x2C ack data: 0x37 
write to 0x2C ack data: 0x30 
write to 0x34 ack data: 0x74 
write to 0x34 ack data: 0x5F 
write to 0x2C ack data: 0x32 
write to 0x34 ack data: 0x74 
write to 0x34 ack data: 0x6F 
write to 0x2C ack data: 0x35 
write to 0x34 ack data: 0x3A 
write to 0x2C ack data: 0x5F 
write to 0x34 ack data: 0x31 
write to 0x2C ack data: 0x63 
write to 0x34 ack data: 0x30 
write to 0x04 nak
write to 0x34 ack data: 0x2B 
write to 0x34 ack data: 0x1D 
write to 0x34 ack data: 0x5D 
write to 0x34 ack data: 0x3C 
write to 0x34 ack data: 0x2B 
write to 0x34 ack data: 0x2F 
write to 0x2C ack data: 0x34 
write to 0x34 ack data: 0x7E 
write to 0x2C ack data: 0x6E 
write to 0x34 ack data: 0x72 
write to 0x34 ack data: 0x5E 
write to 0x2C ack data: 0x5F 
write to 0x34 ack data: 0x79 
write to 0x34 ack data: 0x7A 
write to 0x2C ack data: 0x38 
write to 0x2C ack data: 0x32 
write to 0x34 ack data: 0x47 
write to 0x34 ack data: 0x62 
write to 0x2C ack data: 0x33 
write to 0x34 ack data: 0x62 
write to 0x34 ack data: 0x22 
write to 0x2C ack data: 0x34 
write to 0x34 ack data: 0x23 
write to 0x2C ack data: 0x6B 
write to 0x34 ack data: 0x55 
write to 0x2C ack data: 0x5F 
write to 0x34 ack data: 0x16 
write to 0x34 ack data: 0x03 
write to 0x2C ack data: 0x34 
write to 0x04 nak
write to 0x34 ack data: 0x2B 
write to 0x34 ack data: 0x4A 
write to 0x2C ack data: 0x5F 
write to 0x2C ack data: 0x35 
write to 0x34 ack data: 0x01 
write to 0x34 ack data: 0x0D 
write to 0x2C ack data: 0x33 
write to 0x34 ack data: 0x4D 
write to 0x34 ack data: 0x0E 
write to 0x2C ack data: 0x32 
write to 0x34 ack data: 0x42 
write to 0x2C ack data: 0x31 
write to 0x34 ack data: 0x00 
write to 0x2C ack data: 0x34 
write to 0x34 ack data: 0x42 
write to 0x34 ack data: 0x12 
write to 0x2C ack data: 0x31 
write to 0x34 ack data: 0x64 
write to 0x34 ack data: 0x56 
write to 0x2C ack data: 0x5F 
write to 0x2C ack data: 0x35 
write to 0x34 ack data: 0x07 
write to 0x34 ack data: 0x20 
write to 0x2C ack data: 0x79 
write to 0x34 ack data: 0x53 
write to 0x34 ack data: 0x05 
write to 0x2C ack data: 0x35 
write to 0x34 ack data: 0x42 
write to 0x2C ack data: 0x37 
write to 0x34 ack data: 0x6B 
write to 0x2C ack data: 0x33 
write to 0x34 ack data: 0x1D 
write to 0x04 nak
write to 0x34 ack data: 0x1A 
write to 0x34 ack data: 0x31 
write to 0x34 ack data: 0x56 
write to 0x34 ack data: 0x05 
write to 0x34 ack data: 0x51 
write to 0x34 ack data: 0x78 
write to 0x2C ack data: 0x6D 
write to 0x34 ack data: 0x14 
write to 0x2C ack data: 0x21 
write to 0x34 ack data: 0x6A 
write to 0x34 ack data: 0x16 
write to 0x2C ack data: 0x40 
write to 0x34 ack data: 0x60 
write to 0x34 ack data: 0x51 
write to 0x2C ack data: 0x35 
write to 0x2C ack data: 0x32 
write to 0x34 ack data: 0x79 
write to 0x34 ack data: 0x71 
write to 0x2C ack data: 0x29 
write to 0x34 ack data: 0x74 
write to 0x34 ack data: 0x25 
write to 0x2C ack data: 0x23 
write to 0x34 ack data: 0x20 
write to 0x2C ack data: 0x40 
write to 0x34 ack data: 0x35 
write to 0x2C ack data: 0x25 
write to 0x34 ack data: 0x6D 
write to 0x34 ack data: 0x64 
write to 0x2C ack data: 0x7D 
write to 0x04 nak
write to 0x34 ack data: 0x53 
write to 0x34 ack data: 0x16 